Title: * simulation of test
Date: Sun May 22 19:47:38  2011
Plotname: AC Analysis
Flags: complex
No. Variables: 4
No. Points: 41
Variables:
	0	frequency	frequency grid=3
	1	v(1)	voltage
	2	out	voltage
	3	i(v1)	current
Values:
 0	1.000000000000000e+01,0.000000000000000e+00
	1.000000000000000e+00,0.000000000000000e+00
	9.999605231408795e-01,-6.282937266758387e-03
	-3.947685912062196e-08,-6.282937266758387e-06

 1	1.258925411794167e+01,0.000000000000000e+00
	1.000000000000000e+00,0.000000000000000e+00
	9.999374348393341e-01,-7.909566755942099e-03
	-6.256516066598800e-08,-7.909566755942099e-06

 2	1.584893192461114e+01,0.000000000000000e+00
	1.000000000000000e+00,0.000000000000000e+00
	9.999008445312640e-01,-9.957190212550921e-03
	-9.915546873590780e-08,-9.957190212550920e-06

 3	1.995262314968880e+01,0.000000000000000e+00
	1.000000000000000e+00,0.000000000000000e+00
	9.998428582860952e-01,-1.253463283812141e-02
	-1.571417139046953e-07,-1.253463283812141e-05

 4	2.511886431509581e+01,0.000000000000000e+00
	1.000000000000000e+00,0.000000000000000e+00
	9.997509700560014e-01,-1.577871756783715e-02
	-2.490299439985785e-07,-1.577871756783715e-05

 5	3.162277660168380e+01,0.000000000000000e+00
	1.000000000000000e+00,0.000000000000000e+00
	9.996053716169974e-01,-1.986133559058595e-02
	-3.946283830026653e-07,-1.986133559058595e-05

 6	3.981071705534973e+01,0.000000000000000e+00
	1.000000000000000e+00,0.000000000000000e+00
	9.993747004910177e-01,-2.499817012315517e-02
	-6.252995089822602e-07,-2.499817012315517e-05

 7	5.011872336272724e+01,0.000000000000000e+00
	1.000000000000000e+00,0.000000000000000e+00
	9.990093293863227e-01,-3.145932588935495e-02
	-9.906706136771949e-07,-3.145932588935495e-05

 8	6.309573444801935e+01,0.000000000000000e+00
	1.000000000000000e+00,0.000000000000000e+00
	9.984308021389244e-01,-3.958200953903550e-02
	-1.569197861075490e-06,-3.958200953903550e-05

 9	7.943282347242818e+01,0.000000000000000e+00
	1.000000000000000e+00,0.000000000000000e+00
	9.975152695106657e-01,-4.978510423540043e-02
	-2.484730489334249e-06,-4.978510423540043e-05

 10	1.000000000000000e+02,0.000000000000000e+00
	1.000000000000000e+00,0.000000000000000e+00
	9.960676824071726e-01,-6.258477827057173e-02
	-3.932317592827365e-06,-6.258477827057172e-05

 11	1.258925411794168e+02,0.000000000000000e+00
	1.000000000000000e+00,0.000000000000000e+00
	9.937819979329331e-01,-7.860876870528431e-02
	-6.218002067066896e-06,-7.860876870528431e-05

 12	1.584893192461114e+02,0.000000000000000e+00
	1.000000000000000e+00,0.000000000000000e+00
	9.901808418263091e-01,-9.860396699144985e-02
	-9.819158173691046e-06,-9.860396699144986e-05

 13	1.995262314968881e+02,0.000000000000000e+00
	1.000000000000000e+00,0.000000000000000e+00
	9.845265495375670e-01,-1.234261835803882e-01
	-1.547345046243299e-05,-1.234261835803882e-04

 14	2.511886431509582e+02,0.000000000000000e+00
	1.000000000000000e+00,0.000000000000000e+00
	9.756961908471385e-01,-1.539906945679600e-01
	-2.430380915286151e-05,-1.539906945679600e-04

 15	3.162277660168381e+02,0.000000000000000e+00
	1.000000000000000e+00,0.000000000000000e+00
	9.620209357541625e-01,-1.911456379958699e-01
	-3.797906424583754e-05,-1.911456379958699e-04

 16	3.981071705534975e+02,0.000000000000000e+00
	1.000000000000000e+00,0.000000000000000e+00
	9.411152867478171e-01,-2.354088014441922e-01
	-5.888471325218294e-05,-2.354088014441922e-04

 17	5.011872336272726e+02,0.000000000000000e+00
	1.000000000000000e+00,0.000000000000000e+00
	9.097812664019546e-01,-2.864948755318501e-01
	-9.021873359804547e-05,-2.864948755318501e-04

 18	6.309573444801937e+02,0.000000000000000e+00
	1.000000000000000e+00,0.000000000000000e+00
	8.641799400944487e-01,-3.425973894132934e-01
	-1.358200599055514e-04,-3.425973894132934e-04

 19	7.943282347242821e+02,0.000000000000000e+00
	1.000000000000000e+00,0.000000000000000e+00
	8.005815582254358e-01,-3.995631700429471e-01
	-1.994184417745642e-04,-3.995631700429471e-04

 20	1.000000000000001e+03,0.000000000000000e+00
	1.000000000000000e+00,0.000000000000000e+00
	7.169568003248975e-01,-4.504772433683888e-01
	-2.830431996751025e-04,-4.504772433683889e-04

 21	1.258925411794168e+03,0.000000000000000e+00
	1.000000000000000e+00,0.000000000000000e+00
	6.151231395586007e-01,-4.865661956385492e-01
	-3.848768604413994e-04,-4.865661956385492e-04

 22	1.584893192461115e+03,0.000000000000000e+00
	1.000000000000000e+00,0.000000000000000e+00
	5.020954917241711e-01,-4.999956088951521e-01
	-4.979045082758289e-04,-4.999956088951521e-04

 23	1.995262314968882e+03,0.000000000000000e+00
	1.000000000000000e+00,0.000000000000000e+00
	3.888532701177216e-01,-4.874899018815424e-01
	-6.111467298822784e-04,-4.874899018815424e-04

 24	2.511886431509583e+03,0.000000000000000e+00
	1.000000000000000e+00,0.000000000000000e+00
	2.864574583735092e-01,-4.521057209499770e-01
	-7.135425416264908e-04,-4.521057209499770e-04

 25	3.162277660168383e+03,0.000000000000000e+00
	1.000000000000000e+00,0.000000000000000e+00
	2.021083228643777e-01,-4.015725945496358e-01
	-7.978916771356223e-04,-4.015725945496358e-04

 26	3.981071705534977e+03,0.000000000000000e+00
	1.000000000000000e+00,0.000000000000000e+00
	1.377997439989837e-01,-3.446896786281804e-01
	-8.622002560010163e-04,-3.446896786281804e-04

 27	5.011872336272730e+03,0.000000000000000e+00
	1.000000000000000e+00,0.000000000000000e+00
	9.160419896210738e-02,-2.884664099936387e-01
	-9.083958010378927e-04,-2.884664099936387e-04

 28	6.309573444801941e+03,0.000000000000000e+00
	1.000000000000000e+00,0.000000000000000e+00
	5.982062976643336e-02,-2.371542156926178e-01
	-9.401793702335666e-04,-2.371542156926178e-04

 29	7.943282347242826e+03,0.000000000000000e+00
	1.000000000000000e+00,0.000000000000000e+00
	3.859633238788680e-02,-1.926308789215544e-01
	-9.614036676121133e-04,-1.926308789215544e-04

 30	1.000000000000001e+04,0.000000000000000e+00
	1.000000000000000e+00,0.000000000000000e+00
	2.470452303185757e-02,-1.552230961346474e-01
	-9.752954769681424e-04,-1.552230961346474e-04

 31	1.258925411794169e+04,0.000000000000000e+00
	1.000000000000000e+00,0.000000000000000e+00
	1.573091939939284e-02,-1.244325422638413e-01
	-9.842690806006072e-04,-1.244325422638413e-04

 32	1.584893192461116e+04,0.000000000000000e+00
	1.000000000000000e+00,0.000000000000000e+00
	9.983497127712912e-03,-9.941743766972604e-02
	-9.900165028722870e-04,-9.941743766972604e-05

 33	1.995262314968883e+04,0.000000000000000e+00
	1.000000000000000e+00,0.000000000000000e+00
	6.322454886315673e-03,-7.926210601874124e-02
	-9.936775451136843e-04,-7.926210601874125e-05

 34	2.511886431509585e+04,0.000000000000000e+00
	1.000000000000000e+00,0.000000000000000e+00
	3.998528935458667e-03,-6.310737438533603e-02
	-9.960014710645414e-04,-6.310737438533604e-05

 35	3.162277660168385e+04,0.000000000000000e+00
	1.000000000000000e+00,0.000000000000000e+00
	2.526629563608172e-03,-5.020204882927063e-02
	-9.974733704363919e-04,-5.020204882927063e-05

 36	3.981071705534980e+04,0.000000000000000e+00
	1.000000000000000e+00,0.000000000000000e+00
	1.595683349481161e-03,-3.991412211397553e-02
	-9.984043166505188e-04,-3.991412211397552e-05

 37	5.011872336272732e+04,0.000000000000000e+00
	1.000000000000000e+00,0.000000000000000e+00
	1.007401362519541e-03,-3.172359539860409e-02
	-9.989925986374805e-04,-3.172359539860410e-05

 38	6.309573444801945e+04,0.000000000000000e+00
	1.000000000000000e+00,0.000000000000000e+00
	6.358636861541674e-04,-2.520831933165711e-02
	-9.993641363138458e-04,-2.520831933165712e-05

 39	7.943282347242831e+04,0.000000000000000e+00
	1.000000000000000e+00,0.000000000000000e+00
	4.012970315590287e-04,-2.002837967114391e-02
	-9.995987029684410e-04,-2.002837967114391e-05

 40	1.000000000000002e+05,0.000000000000000e+00
	1.000000000000000e+00,0.000000000000000e+00
	2.532388129651589e-04,-1.591146388830289e-02
	-9.997467611870348e-04,-1.591146388830289e-05

